
TD878 000:373 SEGGER J-Link V4.96d Log File (0001ms, 0302ms total)
TD878 000:373 DLL Compiled: Jan 29 2015 11:45:37 (0001ms, 0302ms total)
TD878 000:373 Logging started @ 2018-09-01 13:43 (0001ms, 0302ms total)
TD878 000:374 JLINK_SetWarnOutHandler(...) (0000ms, 0302ms total)
TD878 000:374 JLINK_OpenEx(...)
Firmware: J-Link ARM-OB STM32 compiled Aug 22 2012 19:52:04
Hardware: V7.00
S/N: 20090928
Feature(s): RDI,FlashDL,FlashBP,JFlash,GDB  returns O.K. (0297ms, 0599ms total)
TD878 000:671 JLINK_SetErrorOutHandler(...) (0000ms, 0599ms total)
TD878 000:671 JLINK_ExecCommand("ProjectFile = "G:\组合导航资料 姜辉\PSINS学习开发板全套资料\PSINS_STM32F4xx_Keil4_V1.1\Project\JLinkSettings.ini"", ...)  returns 0x00 (0001ms, 0600ms total)
TD878 000:698 JLINK_ExecCommand("Device = STM32F405RG", ...)Device "STM32F405RG" selected.  returns 0x00 (0015ms, 0615ms total)
TD878 000:713 JLINK_ExecCommand("DisableConnectionTimeout", ...)  returns 0x01 (0000ms, 0615ms total)
TD878 000:713 JLINK_GetHardwareVersion()  returns 0x11170 (0000ms, 0615ms total)
TD878 000:714 JLINK_GetDLLVersion()  returns 49604 (0000ms, 0616ms total)
TD878 000:714 JLINK_GetFirmwareString(...) (0000ms, 0616ms total)
TD878 000:748 JLINK_GetDLLVersion()  returns 49604 (0000ms, 0616ms total)
TD878 000:748 JLINK_GetCompileDateTime() (0000ms, 0616ms total)
TD878 000:754 JLINK_GetFirmwareString(...) (0000ms, 0616ms total)
TD878 000:830 JLINK_GetHardwareVersion()  returns 0x11170 (0000ms, 0616ms total)
TD878 000:860 JLINK_TIF_Select(JLINKARM_TIF_SWD)  returns 0x00 (0004ms, 0620ms total)
TD878 000:864 JLINK_SetSpeed(3000) (0001ms, 0621ms total)
TD878 000:865 JLINK_GetId() >0x108 TIF>Found SWD-DP with ID 0x2BA01477 >0x0D TIF> >0x28 TIF> >0x0D TIF> >0x28 TIF> >0x0D TIF> >0x21 TIF> >0x0D TIF> >0x28 TIF> >0x0D TIF> >0x28 TIF> >0x0D TIF> >0x28 TIF> >0x0D TIF> >0x21 TIF> >0x0D TIF> >0x21 TIF> >0x0D TIF> >0x28 TIF> >0x0D TIF> >0x21 TIF> >0x0D TIF> >0x21 TIF> >0x0D TIF> >0x28 TIF> >0x0D TIF> >0x21 TIF> >0x0D TIF> >0x21 TIF> >0x108 TIF>Found SWD-DP with ID 0x2BA01477 >0x0D TIF> >0x21 TIF> >0x0D TIF> >0x28 TIF> >0x0D TIF> >0x28 TIF> >0x0D TIF> >0x21 TIF>
 >0x0D TIF> >0x28 TIF> >0x0D TIF> >0x21 TIF> >0x0D TIF> >0x21 TIF> >0x0D TIF> >0x21 TIF> >0x0D TIF> >0x21 TIF> >0x0D TIF> >0x28 TIF> >0x0D TIF> >0x28 TIF> >0x0D TIF> >0x21 TIF> >0x0D TIF> >0x28 TIF> >0x0D TIF> >0x28 TIF> >0x0D TIF> >0x28 TIF> >0x0D TIF> >0x21 TIF> >0x0D TIF> >0x21 TIF> >0x0D TIF> >0x28 TIF> >0x0D TIF> >0x21 TIF> >0x0D TIF> >0x21 TIF>Found Cortex-M4 r0p1, Little endian. -- CPU_WriteMem(4 bytes @ 0xE0002000) -- CPU_ReadMem(4 bytes @ 0xE000EDF0) -- CPU_ReadMem(4 bytes @ 0xE0002000)
FPUnit: 6 code (BP) slots and 2 literal slots -- CPU_ReadMem(4 bytes @ 0xE000EDFC) -- CPU_ReadMem(4 bytes @ 0xE0001000) -- CPU_WriteMem(4 bytes @ 0xE0001000) -- CPU_ReadMem(4 bytes @ 0xE000ED88) -- CPU_WriteMem(4 bytes @ 0xE000ED88) -- CPU_ReadMem(4 bytes @ 0xE000ED88) -- CPU_WriteMem(4 bytes @ 0xE000ED88) -- CPU_ReadMem(4 bytes @ 0xE00FF010)TPIU fitted. -- CPU_ReadMem(4 bytes @ 0xE00FF014)ETM fitted. -- CPU_ReadMem(4 bytes @ 0xE00FF018) >0x0D TIF> >0x21 TIF>  returns 0x2BA01477 (0124ms, 0745ms total)
TD878 000:989 JLINK_GetDLLVersion()  returns 49604 (0000ms, 0745ms total)
TD878 000:989 JLINK_CORE_GetFound()  returns 0xE0000FF (0000ms, 0745ms total)
TD878 000:989 JLINK_GetDebugInfo(0x100) -- Value=0xE00FF003  returns 0x00 (0000ms, 0745ms total)
TD878 000:993 JLINK_ReadMem (0xE00FF000, 0x0020 Bytes, ...) -- CPU is running -- CPU_ReadMem(32 bytes @ 0xE00FF000) - Data: 03 F0 F0 FF 03 20 F0 FF 03 30 F0 FF 03 10 F0 FF ...  returns 0x00 (0001ms, 0746ms total)
TD878 000:994 JLINK_ReadMem (0xE000EFF0, 0x0010 Bytes, ...) -- CPU is running -- CPU_ReadMem(16 bytes @ 0xE000EFF0) - Data: 0D 00 00 00 E0 00 00 00 05 00 00 00 B1 00 00 00  returns 0x00 (0001ms, 0747ms total)
TD878 000:995 JLINK_ReadMem (0xE000EFD0, 0x0020 Bytes, ...) -- CPU is running -- CPU_ReadMem(32 bytes @ 0xE000EFD0) - Data: 04 00 00 00 00 00 00 00 00 00 00 00 00 00 00 00 ...  returns 0x00 (0001ms, 0748ms total)
TD878 000:996 JLINK_ReadMem (0xE0001FF0, 0x0010 Bytes, ...) -- CPU is running -- CPU_ReadMem(16 bytes @ 0xE0001FF0) - Data: 0D 00 00 00 E0 00 00 00 05 00 00 00 B1 00 00 00  returns 0x00 (0001ms, 0749ms total)
TD878 000:997 JLINK_ReadMem (0xE0001FD0, 0x0020 Bytes, ...) -- CPU is running -- CPU_ReadMem(32 bytes @ 0xE0001FD0) - Data: 04 00 00 00 00 00 00 00 00 00 00 00 00 00 00 00 ...  returns 0x00 (0001ms, 0750ms total)
TD878 000:998 JLINK_ReadMem (0xE0002FF0, 0x0010 Bytes, ...) -- CPU is running -- CPU_ReadMem(16 bytes @ 0xE0002FF0) - Data: 0D 00 00 00 E0 00 00 00 05 00 00 00 B1 00 00 00  returns 0x00 (0001ms, 0751ms total)
TD878 000:999 JLINK_ReadMem (0xE0002FD0, 0x0020 Bytes, ...) -- CPU is running -- CPU_ReadMem(32 bytes @ 0xE0002FD0) - Data: 04 00 00 00 00 00 00 00 00 00 00 00 00 00 00 00 ...  returns 0x00 (0001ms, 0752ms total)
TD878 001:000 JLINK_ReadMem (0xE0000FF0, 0x0010 Bytes, ...) -- CPU is running -- CPU_ReadMem(16 bytes @ 0xE0000FF0) - Data: 0D 00 00 00 E0 00 00 00 05 00 00 00 B1 00 00 00  returns 0x00 (0002ms, 0754ms total)
TD878 001:002 JLINK_ReadMem (0xE0000FD0, 0x0020 Bytes, ...) -- CPU is running -- CPU_ReadMem(32 bytes @ 0xE0000FD0) - Data: 04 00 00 00 00 00 00 00 00 00 00 00 00 00 00 00 ...  returns 0x00 (0002ms, 0756ms total)
TD878 001:004 JLINK_ReadMem (0xE0040FF0, 0x0010 Bytes, ...) -- CPU is running -- CPU_ReadMem(16 bytes @ 0xE0040FF0) - Data: 0D 00 00 00 90 00 00 00 05 00 00 00 B1 00 00 00  returns 0x00 (0001ms, 0757ms total)
TD878 001:005 JLINK_ReadMem (0xE0040FD0, 0x0020 Bytes, ...) -- CPU is running -- CPU_ReadMem(32 bytes @ 0xE0040FD0) - Data: 04 00 00 00 00 00 00 00 00 00 00 00 00 00 00 00 ...  returns 0x00 (0001ms, 0758ms total)
TD878 001:006 JLINK_ReadMem (0xE0041FF0, 0x0010 Bytes, ...) -- CPU is running -- CPU_ReadMem(16 bytes @ 0xE0041FF0) - Data: 0D 00 00 00 90 00 00 00 05 00 00 00 B1 00 00 00  returns 0x00 (0001ms, 0759ms total)
TD878 001:007 JLINK_ReadMem (0xE0041FD0, 0x0020 Bytes, ...) -- CPU is running -- CPU_ReadMem(32 bytes @ 0xE0041FD0) - Data: 04 00 00 00 00 00 00 00 00 00 00 00 00 00 00 00 ...  returns 0x00 (0001ms, 0760ms total)
TD878 001:008 JLINK_ReadMemU32(0xE000EF40, 0x0001 Items, ...) -- CPU is running -- CPU_ReadMem(4 bytes @ 0xE000EF40) - Data: 21 00 11 10  returns 0x01 (0001ms, 0761ms total)
TD878 001:009 JLINK_ReadMemU32(0xE000EF44, 0x0001 Items, ...) -- CPU is running -- CPU_ReadMem(4 bytes @ 0xE000EF44) - Data: 11 00 00 11  returns 0x01 (0001ms, 0762ms total)
TD878 001:010 JLINK_ReadMemU32(0xE000ED00, 0x0001 Items, ...) -- CPU is running -- CPU_ReadMem(4 bytes @ 0xE000ED00) - Data: 41 C2 0F 41  returns 0x01 (0001ms, 0763ms total)
TD878 001:011 JLINK_SetResetType(JLINKARM_RESET_TYPE_NORMAL)  returns JLINKARM_RESET_TYPE_NORMAL (0000ms, 0763ms total)
TD878 001:011 JLINK_Reset() -- CPU is running -- CPU_WriteMem(4 bytes @ 0xE000EDF0) -- CPU is running -- CPU_WriteMem(4 bytes @ 0xE000EDFC) >0x35 TIF> -- CPU is running -- CPU_WriteMem(4 bytes @ 0xE000ED0C) -- CPU is running -- CPU_ReadMem(4 bytes @ 0xE000EDF0) -- CPU is running -- CPU_ReadMem(4 bytes @ 0xE000EDF0) -- CPU is running -- CPU_WriteMem(4 bytes @ 0xE000EDF0) -- CPU is running -- CPU_WriteMem(4 bytes @ 0xE000EDFC) -- CPU is running -- CPU_ReadMem(4 bytes @ 0xE000EDF0)
 -- CPU_WriteMem(4 bytes @ 0xE0002000) -- CPU_ReadMem(4 bytes @ 0xE000EDFC) -- CPU_ReadMem(4 bytes @ 0xE0001000) (0024ms, 0787ms total)
TD878 001:035 JLINK_Halt()  returns 0x00 (0000ms, 0787ms total)
TD878 001:035 JLINK_IsHalted()  returns TRUE (0000ms, 0787ms total)
TD878 001:035 JLINK_ReadMemU32(0xE000EDF0, 0x0001 Items, ...) -- CPU_ReadMem(4 bytes @ 0xE000EDF0) - Data: 03 00 03 00  returns 0x01 (0001ms, 0788ms total)
TD878 001:036 JLINK_WriteU32(0xE000EDF0, 0xA05F0003) -- CPU_WriteMem(4 bytes @ 0xE000EDF0)  returns 0x00 (0001ms, 0789ms total)
TD878 001:037 JLINK_WriteU32(0xE000EDFC, 0x01000000) -- CPU_WriteMem(4 bytes @ 0xE000EDFC)  returns 0x00 (0001ms, 0790ms total)
TD878 001:073 JLINK_GetHWStatus(...)  returns 0x00 (0001ms, 0791ms total)
TD878 001:087 JLINK_GetNumBPUnits(Type = 0xFFFFFF00)  returns 0x06 (0000ms, 0791ms total)
TD878 001:087 JLINK_GetNumBPUnits(Type = 0xF0)  returns 0x2000 (0000ms, 0791ms total)
TD878 001:087 JLINK_GetNumWPUnits()  returns 0x04 (0000ms, 0791ms total)
TD878 001:100 JLINK_GetSpeed()  returns 0xA6B (0000ms, 0791ms total)
TD878 001:105 JLINK_ReadMemU32(0xE000E004, 0x0001 Items, ...) -- CPU_ReadMem(4 bytes @ 0xE000E004) - Data: 02 00 00 00  returns 0x01 (0001ms, 0792ms total)
TD878 001:106 JLINK_ReadMemU32(0xE000E004, 0x0001 Items, ...) -- CPU_ReadMem(4 bytes @ 0xE000E004) - Data: 02 00 00 00  returns 0x01 (0001ms, 0793ms total)
TD878 001:107 JLINK_WriteMem(0xE0001000, 0x001C Bytes, ...) - Data: 01 00 00 00 00 00 00 00 00 00 00 00 00 00 00 00 ... -- CPU_WriteMem(28 bytes @ 0xE0001000)  returns 0x1C (0002ms, 0795ms total)
TD878 001:109 JLINK_ReadMem (0xE0001000, 0x001C Bytes, ...) -- CPU_ReadMem(28 bytes @ 0xE0001000) - Data: 01 00 00 40 00 00 00 00 00 00 00 00 00 00 00 00 ...  returns 0x00 (0002ms, 0797ms total)
TD878 001:111 JLINK_Halt()  returns 0x00 (0000ms, 0797ms total)
TD878 001:111 JLINK_IsHalted()  returns TRUE (0000ms, 0797ms total)
TD878 001:115 JLINK_WriteMem(0x20000000, 0x0180 Bytes, ...) - Data: 00 BE 0A E0 0D 78 2D 06 68 40 08 24 40 00 00 D3 ... -- CPU_WriteMem(384 bytes @ 0x20000000)  returns 0x180 (0006ms, 0803ms total)
TD878 001:121 JLINK_WriteReg(R0, 0x08000000)  returns 0x00 (0000ms, 0803ms total)
TD878 001:121 JLINK_WriteReg(R1, 0x00B71B00)  returns 0x00 (0000ms, 0803ms total)
TD878 001:121 JLINK_WriteReg(R2, 0x00000001)  returns 0x00 (0000ms, 0803ms total)
TD878 001:121 JLINK_WriteReg(R3, 0x00000000)  returns 0x00 (0000ms, 0803ms total)
TD878 001:121 JLINK_WriteReg(R4, 0x00000000)  returns 0x00 (0000ms, 0803ms total)
TD878 001:121 JLINK_WriteReg(R5, 0x00000000)  returns 0x00 (0000ms, 0803ms total)
TD878 001:121 JLINK_WriteReg(R6, 0x00000000)  returns 0x00 (0000ms, 0803ms total)
TD878 001:121 JLINK_WriteReg(R7, 0x00000000)  returns 0x00 (0000ms, 0803ms total)
TD878 001:121 JLINK_WriteReg(R8, 0x00000000)  returns 0x00 (0000ms, 0803ms total)
TD878 001:121 JLINK_WriteReg(R9, 0x2000017C)  returns 0x00 (0000ms, 0803ms total)
TD878 001:121 JLINK_WriteReg(R10, 0x00000000)  returns 0x00 (0000ms, 0803ms total)
TD878 001:121 JLINK_WriteReg(R11, 0x00000000)  returns 0x00 (0000ms, 0803ms total)
TD878 001:121 JLINK_WriteReg(R12, 0x00000000)  returns 0x00 (0000ms, 0803ms total)
TD878 001:121 JLINK_WriteReg(R13 (SP), 0x20000800)  returns 0x00 (0000ms, 0803ms total)
TD878 001:121 JLINK_WriteReg(R14, 0x20000001)  returns 0x00 (0000ms, 0803ms total)
TD878 001:121 JLINK_WriteReg(R15 (PC), 0x20000054)  returns 0x00 (0000ms, 0803ms total)
TD878 001:121 JLINK_WriteReg(XPSR, 0x01000000)  returns 0x00 (0000ms, 0803ms total)
TD878 001:121 JLINK_WriteReg(MSP, 0x20000800)  returns 0x00 (0000ms, 0803ms total)
TD878 001:121 JLINK_WriteReg(PSP, 0x20000800)  returns 0x00 (0000ms, 0803ms total)
TD878 001:121 JLINK_WriteReg(CFBP, 0x00000000)  returns 0x00 (0000ms, 0803ms total)
TD878 001:121 JLINK_SetBPEx(Addr = 0x20000000, Type = 0xFFFFFFF2) -- CPU_ReadMem(2 bytes @ 0x20000000)  returns 0x00000001 (0001ms, 0804ms total)
TD878 001:122 JLINK_Go() -- CPU_WriteMem(2 bytes @ 0x20000000) -- CPU_WriteMem(4 bytes @ 0xE0002008) -- CPU_WriteMem(4 bytes @ 0xE000200C) -- CPU_WriteMem(4 bytes @ 0xE0002010) -- CPU_WriteMem(4 bytes @ 0xE0002014) -- CPU_WriteMem(4 bytes @ 0xE0002018) -- CPU_WriteMem(4 bytes @ 0xE000201C) -- CPU_WriteMem(4 bytes @ 0xE0001004) (0013ms, 0817ms total)
TD878 001:135 JLINK_IsHalted() -- CPU_ReadMem(2 bytes @ 0x20000000)  returns TRUE (0006ms, 0823ms total)
TD878 001:141 JLINK_ReadReg(R15 (PC))  returns 0x20000000 (0000ms, 0817ms total)
TD878 001:141 JLINK_ClrBPEx(BPHandle = 0x00000001)  returns 0x00 (0000ms, 0817ms total)
TD878 001:141 JLINK_ReadReg(R0)  returns 0x00000000 (0000ms, 0817ms total)
TD878 001:142 JLINK_WriteReg(R0, 0x08000000)  returns 0x00 (0000ms, 0817ms total)
TD878 001:142 JLINK_WriteReg(R1, 0x00004000)  returns 0x00 (0000ms, 0817ms total)
TD878 001:142 JLINK_WriteReg(R2, 0x000000FF)  returns 0x00 (0000ms, 0817ms total)
TD878 001:142 JLINK_WriteReg(R3, 0x00000000)  returns 0x00 (0000ms, 0817ms total)
TD878 001:142 JLINK_WriteReg(R4, 0x00000000)  returns 0x00 (0000ms, 0817ms total)
TD878 001:142 JLINK_WriteReg(R5, 0x00000000)  returns 0x00 (0000ms, 0817ms total)
TD878 001:142 JLINK_WriteReg(R6, 0x00000000)  returns 0x00 (0000ms, 0817ms total)
TD878 001:142 JLINK_WriteReg(R7, 0x00000000)  returns 0x00 (0000ms, 0817ms total)
TD878 001:142 JLINK_WriteReg(R8, 0x00000000)  returns 0x00 (0000ms, 0817ms total)
TD878 001:142 JLINK_WriteReg(R9, 0x2000017C)  returns 0x00 (0000ms, 0817ms total)
TD878 001:142 JLINK_WriteReg(R10, 0x00000000)  returns 0x00 (0000ms, 0817ms total)
TD878 001:142 JLINK_WriteReg(R11, 0x00000000)  returns 0x00 (0000ms, 0817ms total)
TD878 001:142 JLINK_WriteReg(R12, 0x00000000)  returns 0x00 (0000ms, 0817ms total)
TD878 001:142 JLINK_WriteReg(R13 (SP), 0x20000800)  returns 0x00 (0000ms, 0817ms total)
TD878 001:142 JLINK_WriteReg(R14, 0x20000001)  returns 0x00 (0000ms, 0817ms total)
TD878 001:142 JLINK_WriteReg(R15 (PC), 0x20000020)  returns 0x00 (0000ms, 0817ms total)
TD878 001:142 JLINK_WriteReg(XPSR, 0x01000000)  returns 0x00 (0000ms, 0817ms total)
TD878 001:142 JLINK_WriteReg(MSP, 0x20000800)  returns 0x00 (0000ms, 0817ms total)
TD878 001:142 JLINK_WriteReg(PSP, 0x20000800)  returns 0x00 (0000ms, 0817ms total)
TD878 001:142 JLINK_WriteReg(CFBP, 0x00000000)  returns 0x00 (0000ms, 0817ms total)
TD878 001:142 JLINK_SetBPEx(Addr = 0x20000000, Type = 0xFFFFFFF2)  returns 0x00000002 (0000ms, 0817ms total)
TD878 001:142 JLINK_Go() (0002ms, 0819ms total)
TD878 001:144 JLINK_IsHalted() -- CPU_ReadMem(2 bytes @ 0x20000000)  returns TRUE (0005ms, 0824ms total)
TD878 001:149 JLINK_ReadReg(R15 (PC))  returns 0x20000000 (0000ms, 0819ms total)
TD878 001:149 JLINK_ClrBPEx(BPHandle = 0x00000002)  returns 0x00 (0000ms, 0819ms total)
TD878 001:149 JLINK_ReadReg(R0)  returns 0x00000001 (0000ms, 0819ms total)
TD878 001:149 JLINK_WriteReg(R0, 0x08000000)  returns 0x00 (0000ms, 0819ms total)
TD878 001:149 JLINK_WriteReg(R1, 0x00004000)  returns 0x00 (0000ms, 0819ms total)
TD878 001:149 JLINK_WriteReg(R2, 0x000000FF)  returns 0x00 (0000ms, 0819ms total)
TD878 001:149 JLINK_WriteReg(R3, 0x00000000)  returns 0x00 (0000ms, 0819ms total)
TD878 001:149 JLINK_WriteReg(R4, 0x00000000)  returns 0x00 (0000ms, 0819ms total)
TD878 001:149 JLINK_WriteReg(R5, 0x00000000)  returns 0x00 (0000ms, 0819ms total)
TD878 001:149 JLINK_WriteReg(R6, 0x00000000)  returns 0x00 (0000ms, 0819ms total)
TD878 001:149 JLINK_WriteReg(R7, 0x00000000)  returns 0x00 (0000ms, 0819ms total)
TD878 001:149 JLINK_WriteReg(R8, 0x00000000)  returns 0x00 (0000ms, 0819ms total)
TD878 001:149 JLINK_WriteReg(R9, 0x2000017C)  returns 0x00 (0000ms, 0819ms total)
TD878 001:149 JLINK_WriteReg(R10, 0x00000000)  returns 0x00 (0000ms, 0819ms total)
TD878 001:149 JLINK_WriteReg(R11, 0x00000000)  returns 0x00 (0000ms, 0819ms total)
TD878 001:149 JLINK_WriteReg(R12, 0x00000000)  returns 0x00 (0000ms, 0819ms total)
TD878 001:149 JLINK_WriteReg(R13 (SP), 0x20000800)  returns 0x00 (0000ms, 0819ms total)
TD878 001:149 JLINK_WriteReg(R14, 0x20000001)  returns 0x00 (0000ms, 0819ms total)
TD878 001:149 JLINK_WriteReg(R15 (PC), 0x200000BC)  returns 0x00 (0000ms, 0819ms total)
TD878 001:149 JLINK_WriteReg(XPSR, 0x01000000)  returns 0x00 (0000ms, 0819ms total)
TD878 001:149 JLINK_WriteReg(MSP, 0x20000800)  returns 0x00 (0001ms, 0820ms total)
TD878 001:150 JLINK_WriteReg(PSP, 0x20000800)  returns 0x00 (0000ms, 0820ms total)
TD878 001:150 JLINK_WriteReg(CFBP, 0x00000000)  returns 0x00 (0000ms, 0820ms total)
TD878 001:150 JLINK_SetBPEx(Addr = 0x20000000, Type = 0xFFFFFFF2)  returns 0x00000003 (0000ms, 0820ms total)
TD878 001:150 JLINK_Go() (0003ms, 0823ms total)
TD878 001:154 JLINK_IsHalted()  returns FALSE (0002ms, 0825ms total)
TD878 001:242 JLINK_IsHalted()  returns FALSE (0001ms, 0824ms total)
TD878 001:244 JLINK_IsHalted()  returns FALSE (0001ms, 0824ms total)
TD878 001:246 JLINK_IsHalted()  returns FALSE (0001ms, 0824ms total)
TD878 001:248 JLINK_IsHalted()  returns FALSE (0001ms, 0824ms total)
TD878 001:250 JLINK_IsHalted()  returns FALSE (0001ms, 0824ms total)
TD878 001:252 JLINK_IsHalted()  returns FALSE (0001ms, 0824ms total)
TD878 001:258 JLINK_IsHalted()  returns FALSE (0001ms, 0824ms total)
TD878 001:260 JLINK_IsHalted()  returns FALSE (0001ms, 0824ms total)
TD878 001:262 JLINK_IsHalted()  returns FALSE (0001ms, 0824ms total)
TD878 001:264 JLINK_IsHalted()  returns FALSE (0001ms, 0824ms total)
TD878 001:266 JLINK_IsHalted()  returns FALSE (0001ms, 0824ms total)
TD878 001:268 JLINK_IsHalted()  returns FALSE (0001ms, 0824ms total)
TD878 001:270 JLINK_IsHalted()  returns FALSE (0001ms, 0824ms total)
TD878 001:272 JLINK_IsHalted()  returns FALSE (0001ms, 0824ms total)
TD878 001:274 JLINK_IsHalted()  returns FALSE (0001ms, 0824ms total)
TD878 001:276 JLINK_IsHalted()  returns FALSE (0001ms, 0824ms total)
TD878 001:278 JLINK_IsHalted()  returns FALSE (0001ms, 0824ms total)
TD878 001:280 JLINK_IsHalted()  returns FALSE (0001ms, 0824ms total)
TD878 001:282 JLINK_IsHalted()  returns FALSE (0001ms, 0824ms total)
TD878 001:284 JLINK_IsHalted()  returns FALSE (0001ms, 0824ms total)
TD878 001:286 JLINK_IsHalted()  returns FALSE (0001ms, 0824ms total)
TD878 001:288 JLINK_IsHalted()  returns FALSE (0001ms, 0824ms total)
TD878 001:290 JLINK_IsHalted()  returns FALSE (0001ms, 0824ms total)
TD878 001:292 JLINK_IsHalted()  returns FALSE (0001ms, 0824ms total)
TD878 001:294 JLINK_IsHalted()  returns FALSE (0001ms, 0824ms total)
TD878 001:296 JLINK_IsHalted()  returns FALSE (0001ms, 0824ms total)
TD878 001:298 JLINK_IsHalted()  returns FALSE (0001ms, 0824ms total)
TD878 001:300 JLINK_IsHalted()  returns FALSE (0001ms, 0824ms total)
TD878 001:302 JLINK_IsHalted()  returns FALSE (0001ms, 0824ms total)
TD878 001:304 JLINK_IsHalted()  returns FALSE (0001ms, 0824ms total)
TD878 001:306 JLINK_IsHalted()  returns FALSE (0001ms, 0824ms total)
TD878 001:308 JLINK_IsHalted()  returns FALSE (0001ms, 0824ms total)
TD878 001:310 JLINK_IsHalted()  returns FALSE (0001ms, 0824ms total)
TD878 001:312 JLINK_IsHalted()  returns FALSE (0001ms, 0824ms total)
TD878 001:314 JLINK_IsHalted()  returns FALSE (0001ms, 0824ms total)
TD878 001:321 JLINK_IsHalted()  returns FALSE (0001ms, 0824ms total)
TD878 001:323 JLINK_IsHalted()  returns FALSE (0001ms, 0824ms total)
TD878 001:325 JLINK_IsHalted()  returns FALSE (0001ms, 0824ms total)
TD878 001:327 JLINK_IsHalted()  returns FALSE (0001ms, 0824ms total)
TD878 001:329 JLINK_IsHalted()  returns FALSE (0001ms, 0824ms total)
TD878 001:331 JLINK_IsHalted()  returns FALSE (0001ms, 0824ms total)
TD878 001:333 JLINK_IsHalted()  returns FALSE (0001ms, 0824ms total)
TD878 001:335 JLINK_IsHalted()  returns FALSE (0001ms, 0824ms total)
TD878 001:342 JLINK_IsHalted()  returns FALSE (0001ms, 0824ms total)
TD878 001:344 JLINK_IsHalted()  returns FALSE (0001ms, 0824ms total)
TD878 001:346 JLINK_IsHalted()  returns FALSE (0001ms, 0824ms total)
TD878 001:356 JLINK_IsHalted()  returns FALSE (0001ms, 0824ms total)
TD878 001:358 JLINK_IsHalted()  returns FALSE (0001ms, 0824ms total)
TD878 001:360 JLINK_IsHalted()  returns FALSE (0001ms, 0824ms total)
TD878 001:362 JLINK_IsHalted()  returns FALSE (0001ms, 0824ms total)
TD878 001:368 JLINK_IsHalted()  returns FALSE (0001ms, 0824ms total)
TD878 001:370 JLINK_IsHalted()  returns FALSE (0001ms, 0824ms total)
TD878 001:372 JLINK_IsHalted()  returns FALSE (0001ms, 0824ms total)
TD878 001:374 JLINK_IsHalted()  returns FALSE (0001ms, 0824ms total)
TD878 001:376 JLINK_IsHalted()  returns FALSE (0001ms, 0824ms total)
TD878 001:378 JLINK_IsHalted()  returns FALSE (0001ms, 0824ms total)
TD878 001:380 JLINK_IsHalted()  returns FALSE (0001ms, 0824ms total)
TD878 001:382 JLINK_IsHalted()  returns FALSE (0001ms, 0824ms total)
TD878 001:384 JLINK_IsHalted()  returns FALSE (0001ms, 0824ms total)
TD878 001:386 JLINK_IsHalted()  returns FALSE (0001ms, 0824ms total)
TD878 001:388 JLINK_IsHalted()  returns FALSE (0001ms, 0824ms total)
TD878 001:390 JLINK_IsHalted()  returns FALSE (0001ms, 0824ms total)
TD878 001:392 JLINK_IsHalted()  returns FALSE (0001ms, 0824ms total)
TD878 001:394 JLINK_IsHalted()  returns FALSE (0001ms, 0824ms total)
TD878 001:396 JLINK_IsHalted()  returns FALSE (0001ms, 0824ms total)
TD878 001:398 JLINK_IsHalted()  returns FALSE (0001ms, 0824ms total)
TD878 001:400 JLINK_IsHalted()  returns FALSE (0001ms, 0824ms total)
TD878 001:402 JLINK_IsHalted()  returns FALSE (0001ms, 0824ms total)
TD878 001:404 JLINK_IsHalted()  returns FALSE (0001ms, 0824ms total)
TD878 001:406 JLINK_IsHalted()  returns FALSE (0001ms, 0824ms total)
TD878 001:408 JLINK_IsHalted()  returns FALSE (0001ms, 0824ms total)
TD878 001:410 JLINK_IsHalted()  returns FALSE (0001ms, 0824ms total)
TD878 001:412 JLINK_IsHalted()  returns FALSE (0001ms, 0824ms total)
TD878 001:414 JLINK_IsHalted()  returns FALSE (0001ms, 0824ms total)
TD878 001:416 JLINK_IsHalted()  returns FALSE (0001ms, 0824ms total)
TD878 001:418 JLINK_IsHalted()  returns FALSE (0001ms, 0824ms total)
TD878 001:420 JLINK_IsHalted()  returns FALSE (0001ms, 0824ms total)
TD878 001:422 JLINK_IsHalted()  returns FALSE (0001ms, 0824ms total)
TD878 001:424 JLINK_IsHalted()  returns FALSE (0001ms, 0824ms total)
TD878 001:430 JLINK_IsHalted()  returns FALSE (0001ms, 0824ms total)
TD878 001:432 JLINK_IsHalted()  returns FALSE (0001ms, 0824ms total)
TD878 001:434 JLINK_IsHalted()  returns FALSE (0001ms, 0824ms total)
TD878 001:436 JLINK_IsHalted()  returns FALSE (0001ms, 0824ms total)
TD878 001:438 JLINK_IsHalted()  returns FALSE (0001ms, 0824ms total)
TD878 001:447 JLINK_IsHalted()  returns FALSE (0001ms, 0824ms total)
TD878 001:449 JLINK_IsHalted()  returns FALSE (0001ms, 0824ms total)
TD878 001:451 JLINK_IsHalted()  returns FALSE (0001ms, 0824ms total)
TD878 001:453 JLINK_IsHalted()  returns FALSE (0001ms, 0824ms total)
TD878 001:455 JLINK_IsHalted()  returns FALSE (0001ms, 0824ms total)
TD878 001:457 JLINK_IsHalted()  returns FALSE (0001ms, 0824ms total)
TD878 001:459 JLINK_IsHalted()  returns FALSE (0001ms, 0824ms total)
TD878 001:466 JLINK_IsHalted()  returns FALSE (0001ms, 0824ms total)
TD878 001:468 JLINK_IsHalted()  returns FALSE (0001ms, 0824ms total)
TD878 001:470 JLINK_IsHalted()  returns FALSE (0001ms, 0824ms total)
TD878 001:472 JLINK_IsHalted()  returns FALSE (0001ms, 0824ms total)
TD878 001:478 JLINK_IsHalted()  returns FALSE (0001ms, 0824ms total)
TD878 001:480 JLINK_IsHalted()  returns FALSE (0001ms, 0824ms total)
TD878 001:482 JLINK_IsHalted()  returns FALSE (0001ms, 0824ms total)
TD878 001:484 JLINK_IsHalted()  returns FALSE (0001ms, 0824ms total)
TD878 001:486 JLINK_IsHalted()  returns FALSE (0001ms, 0824ms total)
TD878 001:488 JLINK_IsHalted()  returns FALSE (0001ms, 0824ms total)
TD878 001:490 JLINK_IsHalted()  returns FALSE (0001ms, 0824ms total)
TD878 001:492 JLINK_IsHalted()  returns FALSE (0001ms, 0824ms total)
TD878 001:494 JLINK_IsHalted()  returns FALSE (0001ms, 0824ms total)
TD878 001:496 JLINK_IsHalted()  returns FALSE (0001ms, 0824ms total)
TD878 001:498 JLINK_IsHalted()  returns FALSE (0001ms, 0824ms total)
TD878 001:500 JLINK_IsHalted()  returns FALSE (0001ms, 0824ms total)
TD878 001:502 JLINK_IsHalted()  returns FALSE (0001ms, 0824ms total)
TD878 001:504 JLINK_IsHalted()  returns FALSE (0001ms, 0824ms total)
TD878 001:506 JLINK_IsHalted()  returns FALSE (0001ms, 0824ms total)
TD878 001:508 JLINK_IsHalted()  returns FALSE (0001ms, 0824ms total)
TD878 001:510 JLINK_IsHalted()  returns FALSE (0001ms, 0824ms total)
TD878 001:512 JLINK_IsHalted()  returns FALSE (0001ms, 0824ms total)
TD878 001:514 JLINK_IsHalted()  returns FALSE (0001ms, 0824ms total)
TD878 001:516 JLINK_IsHalted() -- CPU_ReadMem(2 bytes @ 0x20000000)  returns TRUE (0005ms, 0828ms total)
TD878 001:521 JLINK_ReadReg(R15 (PC))  returns 0x20000000 (0000ms, 0823ms total)
TD878 001:521 JLINK_ClrBPEx(BPHandle = 0x00000003)  returns 0x00 (0000ms, 0823ms total)
TD878 001:521 JLINK_ReadReg(R0)  returns 0x00000000 (0000ms, 0823ms total)
TD878 001:523 JLINK_WriteReg(R0, 0x08004000)  returns 0x00 (0000ms, 0823ms total)
TD878 001:523 JLINK_WriteReg(R1, 0x00004000)  returns 0x00 (0000ms, 0823ms total)
TD878 001:523 JLINK_WriteReg(R2, 0x000000FF)  returns 0x00 (0000ms, 0823ms total)
TD878 001:523 JLINK_WriteReg(R3, 0x00000000)  returns 0x00 (0000ms, 0823ms total)
TD878 001:523 JLINK_WriteReg(R4, 0x00000000)  returns 0x00 (0001ms, 0824ms total)
TD878 001:524 JLINK_WriteReg(R5, 0x00000000)  returns 0x00 (0000ms, 0824ms total)
TD878 001:524 JLINK_WriteReg(R6, 0x00000000)  returns 0x00 (0000ms, 0824ms total)
TD878 001:524 JLINK_WriteReg(R7, 0x00000000)  returns 0x00 (0000ms, 0824ms total)
TD878 001:524 JLINK_WriteReg(R8, 0x00000000)  returns 0x00 (0000ms, 0824ms total)
TD878 001:524 JLINK_WriteReg(R9, 0x2000017C)  returns 0x00 (0000ms, 0824ms total)
TD878 001:524 JLINK_WriteReg(R10, 0x00000000)  returns 0x00 (0000ms, 0824ms total)
TD878 001:524 JLINK_WriteReg(R11, 0x00000000)  returns 0x00 (0000ms, 0824ms total)
TD878 001:524 JLINK_WriteReg(R12, 0x00000000)  returns 0x00 (0000ms, 0824ms total)
TD878 001:524 JLINK_WriteReg(R13 (SP), 0x20000800)  returns 0x00 (0000ms, 0824ms total)
TD878 001:524 JLINK_WriteReg(R14, 0x20000001)  returns 0x00 (0000ms, 0824ms total)
TD878 001:524 JLINK_WriteReg(R15 (PC), 0x20000020)  returns 0x00 (0000ms, 0824ms total)
TD878 001:524 JLINK_WriteReg(XPSR, 0x01000000)  returns 0x00 (0000ms, 0824ms total)
TD878 001:524 JLINK_WriteReg(MSP, 0x20000800)  returns 0x00 (0000ms, 0824ms total)
TD878 001:524 JLINK_WriteReg(PSP, 0x20000800)  returns 0x00 (0000ms, 0824ms total)
TD878 001:524 JLINK_WriteReg(CFBP, 0x00000000)  returns 0x00 (0000ms, 0824ms total)
TD878 001:524 JLINK_SetBPEx(Addr = 0x20000000, Type = 0xFFFFFFF2)  returns 0x00000004 (0000ms, 0824ms total)
TD878 001:524 JLINK_Go() (0003ms, 0827ms total)
TD878 001:527 JLINK_IsHalted()  returns FALSE (0001ms, 0828ms total)
TD878 001:529 JLINK_IsHalted()  returns FALSE (0001ms, 0828ms total)
TD878 001:531 JLINK_IsHalted()  returns FALSE (0001ms, 0828ms total)
TD878 001:533 JLINK_IsHalted()  returns FALSE (0001ms, 0828ms total)
TD878 001:535 JLINK_IsHalted()  returns FALSE (0001ms, 0828ms total)
TD878 001:537 JLINK_IsHalted()  returns FALSE (0001ms, 0828ms total)
TD878 001:539 JLINK_IsHalted()  returns FALSE (0001ms, 0828ms total)
TD878 001:541 JLINK_IsHalted() -- CPU_ReadMem(2 bytes @ 0x20000000)  returns TRUE (0005ms, 0832ms total)
TD878 001:546 JLINK_ReadReg(R15 (PC))  returns 0x20000000 (0000ms, 0827ms total)
TD878 001:546 JLINK_ClrBPEx(BPHandle = 0x00000004)  returns 0x00 (0000ms, 0827ms total)
TD878 001:546 JLINK_ReadReg(R0)  returns 0x00000000 (0000ms, 0827ms total)
TD878 001:547 JLINK_WriteReg(R0, 0x00000001)  returns 0x00 (0000ms, 0827ms total)
TD878 001:547 JLINK_WriteReg(R1, 0x00004000)  returns 0x00 (0000ms, 0827ms total)
TD878 001:547 JLINK_WriteReg(R2, 0x000000FF)  returns 0x00 (0000ms, 0827ms total)
TD878 001:547 JLINK_WriteReg(R3, 0x00000000)  returns 0x00 (0000ms, 0827ms total)
TD878 001:547 JLINK_WriteReg(R4, 0x00000000)  returns 0x00 (0000ms, 0827ms total)
TD878 001:547 JLINK_WriteReg(R5, 0x00000000)  returns 0x00 (0000ms, 0827ms total)
TD878 001:547 JLINK_WriteReg(R6, 0x00000000)  returns 0x00 (0000ms, 0827ms total)
TD878 001:547 JLINK_WriteReg(R7, 0x00000000)  returns 0x00 (0000ms, 0827ms total)
TD878 001:547 JLINK_WriteReg(R8, 0x00000000)  returns 0x00 (0000ms, 0827ms total)
TD878 001:547 JLINK_WriteReg(R9, 0x2000017C)  returns 0x00 (0000ms, 0827ms total)
TD878 001:547 JLINK_WriteReg(R10, 0x00000000)  returns 0x00 (0000ms, 0827ms total)
TD878 001:547 JLINK_WriteReg(R11, 0x00000000)  returns 0x00 (0000ms, 0827ms total)
TD878 001:547 JLINK_WriteReg(R12, 0x00000000)  returns 0x00 (0001ms, 0828ms total)
TD878 001:548 JLINK_WriteReg(R13 (SP), 0x20000800)  returns 0x00 (0000ms, 0828ms total)
TD878 001:548 JLINK_WriteReg(R14, 0x20000001)  returns 0x00 (0000ms, 0828ms total)
TD878 001:548 JLINK_WriteReg(R15 (PC), 0x20000082)  returns 0x00 (0000ms, 0828ms total)
TD878 001:548 JLINK_WriteReg(XPSR, 0x01000000)  returns 0x00 (0000ms, 0828ms total)
TD878 001:548 JLINK_WriteReg(MSP, 0x20000800)  returns 0x00 (0000ms, 0828ms total)
TD878 001:548 JLINK_WriteReg(PSP, 0x20000800)  returns 0x00 (0000ms, 0828ms total)
TD878 001:548 JLINK_WriteReg(CFBP, 0x00000000)  returns 0x00 (0000ms, 0828ms total)
TD878 001:548 JLINK_SetBPEx(Addr = 0x20000000, Type = 0xFFFFFFF2)  returns 0x00000005 (0000ms, 0828ms total)
TD878 001:548 JLINK_Go() (0002ms, 0830ms total)
TD878 001:550 JLINK_IsHalted() -- CPU_ReadMem(2 bytes @ 0x20000000)  returns TRUE (0005ms, 0835ms total)
TD878 001:556 JLINK_ReadReg(R15 (PC))  returns 0x20000000 (0000ms, 0830ms total)
TD878 001:556 JLINK_ClrBPEx(BPHandle = 0x00000005)  returns 0x00 (0000ms, 0830ms total)
TD878 001:556 JLINK_ReadReg(R0)  returns 0x00000000 (0000ms, 0830ms total)
TD878 001:636 JLINK_WriteMem(0x20000000, 0x0180 Bytes, ...) - Data: 00 BE 0A E0 0D 78 2D 06 68 40 08 24 40 00 00 D3 ... -- CPU_WriteMem(384 bytes @ 0x20000000)  returns 0x180 (0005ms, 0835ms total)
TD878 001:642 JLINK_WriteReg(R0, 0x08000000)  returns 0x00 (0000ms, 0835ms total)
TD878 001:642 JLINK_WriteReg(R1, 0x00B71B00)  returns 0x00 (0000ms, 0835ms total)
TD878 001:642 JLINK_WriteReg(R2, 0x00000002)  returns 0x00 (0000ms, 0835ms total)
TD878 001:642 JLINK_WriteReg(R3, 0x00000000)  returns 0x00 (0000ms, 0835ms total)
TD878 001:642 JLINK_WriteReg(R4, 0x00000000)  returns 0x00 (0000ms, 0835ms total)
TD878 001:642 JLINK_WriteReg(R5, 0x00000000)  returns 0x00 (0000ms, 0835ms total)
TD878 001:642 JLINK_WriteReg(R6, 0x00000000)  returns 0x00 (0000ms, 0835ms total)
TD878 001:642 JLINK_WriteReg(R7, 0x00000000)  returns 0x00 (0000ms, 0835ms total)
TD878 001:642 JLINK_WriteReg(R8, 0x00000000)  returns 0x00 (0000ms, 0835ms total)
TD878 001:642 JLINK_WriteReg(R9, 0x2000017C)  returns 0x00 (0000ms, 0835ms total)
TD878 001:642 JLINK_WriteReg(R10, 0x00000000)  returns 0x00 (0000ms, 0835ms total)
TD878 001:642 JLINK_WriteReg(R11, 0x00000000)  returns 0x00 (0000ms, 0835ms total)
TD878 001:642 JLINK_WriteReg(R12, 0x00000000)  returns 0x00 (0000ms, 0835ms total)
TD878 001:642 JLINK_WriteReg(R13 (SP), 0x20000800)  returns 0x00 (0000ms, 0835ms total)
TD878 001:642 JLINK_WriteReg(R14, 0x20000001)  returns 0x00 (0000ms, 0835ms total)
TD878 001:642 JLINK_WriteReg(R15 (PC), 0x20000054)  returns 0x00 (0000ms, 0835ms total)
TD878 001:642 JLINK_WriteReg(XPSR, 0x01000000)  returns 0x00 (0000ms, 0835ms total)
TD878 001:642 JLINK_WriteReg(MSP, 0x20000800)  returns 0x00 (0000ms, 0835ms total)
TD878 001:642 JLINK_WriteReg(PSP, 0x20000800)  returns 0x00 (0000ms, 0835ms total)
TD878 001:642 JLINK_WriteReg(CFBP, 0x00000000)  returns 0x00 (0000ms, 0835ms total)
TD878 001:642 JLINK_SetBPEx(Addr = 0x20000000, Type = 0xFFFFFFF2) -- CPU_ReadMem(2 bytes @ 0x20000000)  returns 0x00000006 (0002ms, 0837ms total)
TD878 001:644 JLINK_Go() -- CPU_WriteMem(2 bytes @ 0x20000000) (0004ms, 0841ms total)
TD878 001:648 JLINK_IsHalted() -- CPU_ReadMem(2 bytes @ 0x20000000)  returns TRUE (0004ms, 0845ms total)
TD878 001:652 JLINK_ReadReg(R15 (PC))  returns 0x20000000 (0000ms, 0841ms total)
TD878 001:652 JLINK_ClrBPEx(BPHandle = 0x00000006)  returns 0x00 (0000ms, 0841ms total)
TD878 001:653 JLINK_ReadReg(R0)  returns 0x00000000 (0000ms, 0841ms total)
TD878 001:653 JLINK_WriteMem(0x20000180, 0x0400 Bytes, ...) - Data: 90 0E 00 20 2D 02 00 08 F5 1C 00 08 25 13 00 08 ... -- CPU_WriteMem(1024 bytes @ 0x20000180)  returns 0x400 (0012ms, 0853ms total)
TD878 001:665 JLINK_WriteReg(R0, 0x08000000)  returns 0x00 (0000ms, 0853ms total)
TD878 001:666 JLINK_WriteReg(R1, 0x00000400)  returns 0x00 (0000ms, 0854ms total)
TD878 001:666 JLINK_WriteReg(R2, 0x20000180)  returns 0x00 (0000ms, 0854ms total)
TD878 001:666 JLINK_WriteReg(R3, 0x00000000)  returns 0x00 (0000ms, 0854ms total)
TD878 001:666 JLINK_WriteReg(R4, 0x00000000)  returns 0x00 (0000ms, 0854ms total)
TD878 001:666 JLINK_WriteReg(R5, 0x00000000)  returns 0x00 (0000ms, 0854ms total)
TD878 001:666 JLINK_WriteReg(R6, 0x00000000)  returns 0x00 (0000ms, 0854ms total)
TD878 001:666 JLINK_WriteReg(R7, 0x00000000)  returns 0x00 (0000ms, 0854ms total)
TD878 001:666 JLINK_WriteReg(R8, 0x00000000)  returns 0x00 (0000ms, 0854ms total)
TD878 001:666 JLINK_WriteReg(R9, 0x2000017C)  returns 0x00 (0000ms, 0854ms total)
TD878 001:666 JLINK_WriteReg(R10, 0x00000000)  returns 0x00 (0000ms, 0854ms total)
TD878 001:666 JLINK_WriteReg(R11, 0x00000000)  returns 0x00 (0000ms, 0854ms total)
TD878 001:666 JLINK_WriteReg(R12, 0x00000000)  returns 0x00 (0000ms, 0854ms total)
TD878 001:666 JLINK_WriteReg(R13 (SP), 0x20000800)  returns 0x00 (0000ms, 0854ms total)
TD878 001:666 JLINK_WriteReg(R14, 0x20000001)  returns 0x00 (0000ms, 0854ms total)
TD878 001:666 JLINK_WriteReg(R15 (PC), 0x20000108)  returns 0x00 (0000ms, 0854ms total)
TD878 001:666 JLINK_WriteReg(XPSR, 0x01000000)  returns 0x00 (0000ms, 0854ms total)
TD878 001:666 JLINK_WriteReg(MSP, 0x20000800)  returns 0x00 (0000ms, 0854ms total)
TD878 001:666 JLINK_WriteReg(PSP, 0x20000800)  returns 0x00 (0000ms, 0854ms total)
TD878 001:666 JLINK_WriteReg(CFBP, 0x00000000)  returns 0x00 (0001ms, 0855ms total)
TD878 001:667 JLINK_SetBPEx(Addr = 0x20000000, Type = 0xFFFFFFF2)  returns 0x00000007 (0000ms, 0855ms total)
TD878 001:667 JLINK_Go() (0002ms, 0857ms total)
TD878 001:669 JLINK_IsHalted()  returns FALSE (0001ms, 0858ms total)
TD878 001:688 JLINK_IsHalted() -- CPU_ReadMem(2 bytes @ 0x20000000)  returns TRUE (0005ms, 0862ms total)
TD878 001:693 JLINK_ReadReg(R15 (PC))  returns 0x20000000 (0000ms, 0857ms total)
TD878 001:693 JLINK_ClrBPEx(BPHandle = 0x00000007)  returns 0x00 (0000ms, 0857ms total)
TD878 001:693 JLINK_ReadReg(R0)  returns 0x00000000 (0000ms, 0857ms total)
TD878 001:695 JLINK_WriteMem(0x20000180, 0x0400 Bytes, ...) - Data: 91 60 6E E0 37 49 60 31 88 42 04 D1 36 49 35 4A ... -- CPU_WriteMem(1024 bytes @ 0x20000180)  returns 0x400 (0013ms, 0870ms total)
TD878 001:708 JLINK_WriteReg(R0, 0x08000400)  returns 0x00 (0000ms, 0870ms total)
TD878 001:708 JLINK_WriteReg(R1, 0x00000400)  returns 0x00 (0000ms, 0870ms total)
TD878 001:708 JLINK_WriteReg(R2, 0x20000180)  returns 0x00 (0000ms, 0870ms total)
TD878 001:708 JLINK_WriteReg(R3, 0x00000000)  returns 0x00 (0000ms, 0870ms total)
TD878 001:708 JLINK_WriteReg(R4, 0x00000000)  returns 0x00 (0000ms, 0870ms total)
TD878 001:708 JLINK_WriteReg(R5, 0x00000000)  returns 0x00 (0000ms, 0870ms total)
TD878 001:708 JLINK_WriteReg(R6, 0x00000000)  returns 0x00 (0000ms, 0870ms total)
TD878 001:708 JLINK_WriteReg(R7, 0x00000000)  returns 0x00 (0000ms, 0870ms total)
TD878 001:708 JLINK_WriteReg(R8, 0x00000000)  returns 0x00 (0000ms, 0870ms total)
TD878 001:708 JLINK_WriteReg(R9, 0x2000017C)  returns 0x00 (0000ms, 0870ms total)
TD878 001:708 JLINK_WriteReg(R10, 0x00000000)  returns 0x00 (0000ms, 0870ms total)
TD878 001:708 JLINK_WriteReg(R11, 0x00000000)  returns 0x00 (0000ms, 0870ms total)
TD878 001:708 JLINK_WriteReg(R12, 0x00000000)  returns 0x00 (0000ms, 0870ms total)
TD878 001:708 JLINK_WriteReg(R13 (SP), 0x20000800)  returns 0x00 (0000ms, 0870ms total)
TD878 001:708 JLINK_WriteReg(R14, 0x20000001)  returns 0x00 (0000ms, 0870ms total)
TD878 001:708 JLINK_WriteReg(R15 (PC), 0x20000108)  returns 0x00 (0000ms, 0870ms total)
TD878 001:708 JLINK_WriteReg(XPSR, 0x01000000)  returns 0x00 (0000ms, 0870ms total)
TD878 001:708 JLINK_WriteReg(MSP, 0x20000800)  returns 0x00 (0000ms, 0870ms total)
TD878 001:708 JLINK_WriteReg(PSP, 0x20000800)  returns 0x00 (0000ms, 0870ms total)
TD878 001:708 JLINK_WriteReg(CFBP, 0x00000000)  returns 0x00 (0000ms, 0870ms total)
TD878 001:708 JLINK_SetBPEx(Addr = 0x20000000, Type = 0xFFFFFFF2)  returns 0x00000008 (0000ms, 0870ms total)
TD878 001:708 JLINK_Go() (0003ms, 0873ms total)
TD878 001:711 JLINK_IsHalted()  returns FALSE (0001ms, 0874ms total)
TD878 001:717 JLINK_IsHalted() -- CPU_ReadMem(2 bytes @ 0x20000000)  returns TRUE (0005ms, 0878ms total)
TD878 001:722 JLINK_ReadReg(R15 (PC))  returns 0x20000000 (0000ms, 0873ms total)
TD878 001:722 JLINK_ClrBPEx(BPHandle = 0x00000008)  returns 0x00 (0000ms, 0873ms total)
TD878 001:722 JLINK_ReadReg(R0)  returns 0x00000000 (0000ms, 0873ms total)
TD878 001:723 JLINK_WriteMem(0x20000180, 0x0400 Bytes, ...) - Data: 00 EE 81 0A 55 48 80 ED 1F 0A 5D 48 90 ED 00 0A ... -- CPU_WriteMem(1024 bytes @ 0x20000180)  returns 0x400 (0013ms, 0886ms total)
TD878 001:736 JLINK_WriteReg(R0, 0x08000800)  returns 0x00 (0000ms, 0886ms total)
TD878 001:736 JLINK_WriteReg(R1, 0x00000400)  returns 0x00 (0000ms, 0886ms total)
TD878 001:736 JLINK_WriteReg(R2, 0x20000180)  returns 0x00 (0000ms, 0886ms total)
TD878 001:736 JLINK_WriteReg(R3, 0x00000000)  returns 0x00 (0000ms, 0886ms total)
TD878 001:736 JLINK_WriteReg(R4, 0x00000000)  returns 0x00 (0000ms, 0886ms total)
TD878 001:736 JLINK_WriteReg(R5, 0x00000000)  returns 0x00 (0000ms, 0886ms total)
TD878 001:736 JLINK_WriteReg(R6, 0x00000000)  returns 0x00 (0000ms, 0886ms total)
TD878 001:736 JLINK_WriteReg(R7, 0x00000000)  returns 0x00 (0000ms, 0886ms total)
TD878 001:736 JLINK_WriteReg(R8, 0x00000000)  returns 0x00 (0000ms, 0886ms total)
TD878 001:736 JLINK_WriteReg(R9, 0x2000017C)  returns 0x00 (0000ms, 0886ms total)
TD878 001:736 JLINK_WriteReg(R10, 0x00000000)  returns 0x00 (0000ms, 0886ms total)
TD878 001:736 JLINK_WriteReg(R11, 0x00000000)  returns 0x00 (0000ms, 0886ms total)
TD878 001:736 JLINK_WriteReg(R12, 0x00000000)  returns 0x00 (0000ms, 0886ms total)
TD878 001:736 JLINK_WriteReg(R13 (SP), 0x20000800)  returns 0x00 (0000ms, 0886ms total)
TD878 001:736 JLINK_WriteReg(R14, 0x20000001)  returns 0x00 (0000ms, 0886ms total)
TD878 001:736 JLINK_WriteReg(R15 (PC), 0x20000108)  returns 0x00 (0000ms, 0886ms total)
TD878 001:736 JLINK_WriteReg(XPSR, 0x01000000)  returns 0x00 (0000ms, 0886ms total)
TD878 001:736 JLINK_WriteReg(MSP, 0x20000800)  returns 0x00 (0000ms, 0886ms total)
TD878 001:736 JLINK_WriteReg(PSP, 0x20000800)  returns 0x00 (0000ms, 0886ms total)
TD878 001:736 JLINK_WriteReg(CFBP, 0x00000000)  returns 0x00 (0000ms, 0886ms total)
TD878 001:736 JLINK_SetBPEx(Addr = 0x20000000, Type = 0xFFFFFFF2)  returns 0x00000009 (0000ms, 0886ms total)
TD878 001:736 JLINK_Go() (0003ms, 0889ms total)
TD878 001:739 JLINK_IsHalted()  returns FALSE (0001ms, 0890ms total)
TD878 001:743 JLINK_IsHalted()  returns FALSE (0001ms, 0890ms total)
TD878 001:745 JLINK_IsHalted() -- CPU_ReadMem(2 bytes @ 0x20000000)  returns TRUE (0005ms, 0894ms total)
TD878 001:750 JLINK_ReadReg(R15 (PC))  returns 0x20000000 (0000ms, 0889ms total)
TD878 001:750 JLINK_ClrBPEx(BPHandle = 0x00000009)  returns 0x00 (0000ms, 0889ms total)
TD878 001:750 JLINK_ReadReg(R0)  returns 0x00000000 (0000ms, 0889ms total)
TD878 001:751 JLINK_WriteMem(0x20000180, 0x0400 Bytes, ...) - Data: 8D F8 06 00 01 20 8D F8 07 00 03 20 8D F8 05 00 ... -- CPU_WriteMem(1024 bytes @ 0x20000180)  returns 0x400 (0013ms, 0902ms total)
TD878 001:764 JLINK_WriteReg(R0, 0x08000C00)  returns 0x00 (0000ms, 0902ms total)
TD878 001:764 JLINK_WriteReg(R1, 0x00000400)  returns 0x00 (0000ms, 0902ms total)
TD878 001:764 JLINK_WriteReg(R2, 0x20000180)  returns 0x00 (0000ms, 0902ms total)
TD878 001:764 JLINK_WriteReg(R3, 0x00000000)  returns 0x00 (0000ms, 0902ms total)
TD878 001:764 JLINK_WriteReg(R4, 0x00000000)  returns 0x00 (0000ms, 0902ms total)
TD878 001:764 JLINK_WriteReg(R5, 0x00000000)  returns 0x00 (0000ms, 0902ms total)
TD878 001:764 JLINK_WriteReg(R6, 0x00000000)  returns 0x00 (0000ms, 0902ms total)
TD878 001:764 JLINK_WriteReg(R7, 0x00000000)  returns 0x00 (0000ms, 0902ms total)
TD878 001:764 JLINK_WriteReg(R8, 0x00000000)  returns 0x00 (0000ms, 0902ms total)
TD878 001:764 JLINK_WriteReg(R9, 0x2000017C)  returns 0x00 (0000ms, 0902ms total)
TD878 001:764 JLINK_WriteReg(R10, 0x00000000)  returns 0x00 (0000ms, 0902ms total)
TD878 001:764 JLINK_WriteReg(R11, 0x00000000)  returns 0x00 (0000ms, 0902ms total)
TD878 001:764 JLINK_WriteReg(R12, 0x00000000)  returns 0x00 (0000ms, 0902ms total)
TD878 001:764 JLINK_WriteReg(R13 (SP), 0x20000800)  returns 0x00 (0000ms, 0902ms total)
TD878 001:764 JLINK_WriteReg(R14, 0x20000001)  returns 0x00 (0000ms, 0902ms total)
TD878 001:764 JLINK_WriteReg(R15 (PC), 0x20000108)  returns 0x00 (0000ms, 0902ms total)
TD878 001:764 JLINK_WriteReg(XPSR, 0x01000000)  returns 0x00 (0000ms, 0902ms total)
TD878 001:764 JLINK_WriteReg(MSP, 0x20000800)  returns 0x00 (0000ms, 0902ms total)
TD878 001:765 JLINK_WriteReg(PSP, 0x20000800)  returns 0x00 (0000ms, 0903ms total)
TD878 001:765 JLINK_WriteReg(CFBP, 0x00000000)  returns 0x00 (0000ms, 0903ms total)
TD878 001:765 JLINK_SetBPEx(Addr = 0x20000000, Type = 0xFFFFFFF2)  returns 0x0000000A (0000ms, 0903ms total)
TD878 001:765 JLINK_Go() (0002ms, 0905ms total)
TD878 001:767 JLINK_IsHalted()  returns FALSE (0001ms, 0906ms total)
TD878 001:779 JLINK_IsHalted() -- CPU_ReadMem(2 bytes @ 0x20000000)  returns TRUE (0005ms, 0910ms total)
TD878 001:784 JLINK_ReadReg(R15 (PC))  returns 0x20000000 (0000ms, 0905ms total)
TD878 001:784 JLINK_ClrBPEx(BPHandle = 0x0000000A)  returns 0x00 (0000ms, 0905ms total)
TD878 001:784 JLINK_ReadReg(R0)  returns 0x00000000 (0000ms, 0905ms total)
TD878 001:788 JLINK_WriteMem(0x20000180, 0x0400 Bytes, ...) - Data: 41 EC 19 0B 9F ED AB 0B 53 EC 10 2B 05 F0 C4 FA ... -- CPU_WriteMem(1024 bytes @ 0x20000180)  returns 0x400 (0013ms, 0918ms total)
TD878 001:801 JLINK_WriteReg(R0, 0x08001000)  returns 0x00 (0000ms, 0918ms total)
TD878 001:801 JLINK_WriteReg(R1, 0x00000400)  returns 0x00 (0000ms, 0918ms total)
TD878 001:801 JLINK_WriteReg(R2, 0x20000180)  returns 0x00 (0000ms, 0918ms total)
TD878 001:801 JLINK_WriteReg(R3, 0x00000000)  returns 0x00 (0000ms, 0918ms total)
TD878 001:801 JLINK_WriteReg(R4, 0x00000000)  returns 0x00 (0000ms, 0918ms total)
TD878 001:801 JLINK_WriteReg(R5, 0x00000000)  returns 0x00 (0000ms, 0918ms total)
TD878 001:801 JLINK_WriteReg(R6, 0x00000000)  returns 0x00 (0000ms, 0918ms total)
TD878 001:801 JLINK_WriteReg(R7, 0x00000000)  returns 0x00 (0000ms, 0918ms total)
TD878 001:802 JLINK_WriteReg(R8, 0x00000000)  returns 0x00 (0000ms, 0919ms total)
TD878 001:802 JLINK_WriteReg(R9, 0x2000017C)  returns 0x00 (0000ms, 0919ms total)
TD878 001:802 JLINK_WriteReg(R10, 0x00000000)  returns 0x00 (0000ms, 0919ms total)
TD878 001:802 JLINK_WriteReg(R11, 0x00000000)  returns 0x00 (0000ms, 0919ms total)
TD878 001:802 JLINK_WriteReg(R12, 0x00000000)  returns 0x00 (0000ms, 0919ms total)
TD878 001:802 JLINK_WriteReg(R13 (SP), 0x20000800)  returns 0x00 (0000ms, 0919ms total)
TD878 001:802 JLINK_WriteReg(R14, 0x20000001)  returns 0x00 (0000ms, 0919ms total)
TD878 001:802 JLINK_WriteReg(R15 (PC), 0x20000108)  returns 0x00 (0000ms, 0919ms total)
TD878 001:802 JLINK_WriteReg(XPSR, 0x01000000)  returns 0x00 (0000ms, 0919ms total)
TD878 001:802 JLINK_WriteReg(MSP, 0x20000800)  returns 0x00 (0000ms, 0919ms total)
TD878 001:802 JLINK_WriteReg(PSP, 0x20000800)  returns 0x00 (0000ms, 0919ms total)
TD878 001:802 JLINK_WriteReg(CFBP, 0x00000000)  returns 0x00 (0000ms, 0919ms total)
TD878 001:802 JLINK_SetBPEx(Addr = 0x20000000, Type = 0xFFFFFFF2)  returns 0x0000000B (0000ms, 0919ms total)
TD878 001:802 JLINK_Go() (0003ms, 0922ms total)
TD878 001:805 JLINK_IsHalted()  returns FALSE (0001ms, 0923ms total)
TD878 001:819 JLINK_IsHalted() -- CPU_ReadMem(2 bytes @ 0x20000000)  returns TRUE (0005ms, 0927ms total)
TD878 001:824 JLINK_ReadReg(R15 (PC))  returns 0x20000000 (0000ms, 0922ms total)
TD878 001:824 JLINK_ClrBPEx(BPHandle = 0x0000000B)  returns 0x00 (0000ms, 0922ms total)
TD878 001:824 JLINK_ReadReg(R0)  returns 0x00000000 (0000ms, 0922ms total)
TD878 001:825 JLINK_WriteMem(0x20000180, 0x0400 Bytes, ...) - Data: 00 F0 08 F8 9D F8 00 00 38 BD 00 00 00 00 02 40 ... -- CPU_WriteMem(1024 bytes @ 0x20000180)  returns 0x400 (0013ms, 0935ms total)
TD878 001:838 JLINK_WriteReg(R0, 0x08001400)  returns 0x00 (0000ms, 0935ms total)
TD878 001:838 JLINK_WriteReg(R1, 0x00000400)  returns 0x00 (0000ms, 0935ms total)
TD878 001:838 JLINK_WriteReg(R2, 0x20000180)  returns 0x00 (0000ms, 0935ms total)
TD878 001:838 JLINK_WriteReg(R3, 0x00000000)  returns 0x00 (0000ms, 0935ms total)
TD878 001:838 JLINK_WriteReg(R4, 0x00000000)  returns 0x00 (0000ms, 0935ms total)
TD878 001:838 JLINK_WriteReg(R5, 0x00000000)  returns 0x00 (0000ms, 0935ms total)
TD878 001:838 JLINK_WriteReg(R6, 0x00000000)  returns 0x00 (0000ms, 0935ms total)
TD878 001:838 JLINK_WriteReg(R7, 0x00000000)  returns 0x00 (0000ms, 0935ms total)
TD878 001:838 JLINK_WriteReg(R8, 0x00000000)  returns 0x00 (0000ms, 0935ms total)
TD878 001:839 JLINK_WriteReg(R9, 0x2000017C)  returns 0x00 (0000ms, 0935ms total)
TD878 001:839 JLINK_WriteReg(R10, 0x00000000)  returns 0x00 (0000ms, 0935ms total)
TD878 001:839 JLINK_WriteReg(R11, 0x00000000)  returns 0x00 (0000ms, 0935ms total)
TD878 001:839 JLINK_WriteReg(R12, 0x00000000)  returns 0x00 (0000ms, 0935ms total)
TD878 001:839 JLINK_WriteReg(R13 (SP), 0x20000800)  returns 0x00 (0000ms, 0935ms total)
TD878 001:839 JLINK_WriteReg(R14, 0x20000001)  returns 0x00 (0000ms, 0935ms total)
TD878 001:839 JLINK_WriteReg(R15 (PC), 0x20000108)  returns 0x00 (0000ms, 0935ms total)
TD878 001:839 JLINK_WriteReg(XPSR, 0x01000000)  returns 0x00 (0000ms, 0935ms total)
TD878 001:839 JLINK_WriteReg(MSP, 0x20000800)  returns 0x00 (0000ms, 0935ms total)
TD878 001:839 JLINK_WriteReg(PSP, 0x20000800)  returns 0x00 (0000ms, 0935ms total)
TD878 001:839 JLINK_WriteReg(CFBP, 0x00000000)  returns 0x00 (0000ms, 0935ms total)
TD878 001:839 JLINK_SetBPEx(Addr = 0x20000000, Type = 0xFFFFFFF2)  returns 0x0000000C (0000ms, 0935ms total)
TD878 001:839 JLINK_Go() (0003ms, 0938ms total)
TD878 001:842 JLINK_IsHalted()  returns FALSE (0001ms, 0939ms total)
TD878 001:844 JLINK_IsHalted()  returns FALSE (0001ms, 0939ms total)
TD878 001:846 JLINK_IsHalted() -- CPU_ReadMem(2 bytes @ 0x20000000)  returns TRUE (0005ms, 0943ms total)
TD878 001:851 JLINK_ReadReg(R15 (PC))  returns 0x20000000 (0000ms, 0938ms total)
TD878 001:851 JLINK_ClrBPEx(BPHandle = 0x0000000C)  returns 0x00 (0000ms, 0938ms total)
TD878 001:851 JLINK_ReadReg(R0)  returns 0x00000000 (0000ms, 0938ms total)
TD878 001:853 JLINK_WriteMem(0x20000180, 0x0400 Bytes, ...) - Data: 7F FE FF F7 61 FE EF 20 FF F7 2C FE FF F7 90 FE ... -- CPU_WriteMem(1024 bytes @ 0x20000180)  returns 0x400 (0012ms, 0950ms total)
TD878 001:865 JLINK_WriteReg(R0, 0x08001800)  returns 0x00 (0000ms, 0950ms total)
TD878 001:865 JLINK_WriteReg(R1, 0x00000400)  returns 0x00 (0000ms, 0950ms total)
TD878 001:865 JLINK_WriteReg(R2, 0x20000180)  returns 0x00 (0000ms, 0950ms total)
TD878 001:865 JLINK_WriteReg(R3, 0x00000000)  returns 0x00 (0000ms, 0950ms total)
TD878 001:865 JLINK_WriteReg(R4, 0x00000000)  returns 0x00 (0000ms, 0950ms total)
TD878 001:865 JLINK_WriteReg(R5, 0x00000000)  returns 0x00 (0000ms, 0950ms total)
TD878 001:865 JLINK_WriteReg(R6, 0x00000000)  returns 0x00 (0000ms, 0950ms total)
TD878 001:865 JLINK_WriteReg(R7, 0x00000000)  returns 0x00 (0001ms, 0951ms total)
TD878 001:866 JLINK_WriteReg(R8, 0x00000000)  returns 0x00 (0000ms, 0951ms total)
TD878 001:866 JLINK_WriteReg(R9, 0x2000017C)  returns 0x00 (0000ms, 0951ms total)
TD878 001:866 JLINK_WriteReg(R10, 0x00000000)  returns 0x00 (0000ms, 0951ms total)
TD878 001:866 JLINK_WriteReg(R11, 0x00000000)  returns 0x00 (0000ms, 0951ms total)
TD878 001:866 JLINK_WriteReg(R12, 0x00000000)  returns 0x00 (0000ms, 0951ms total)
TD878 001:866 JLINK_WriteReg(R13 (SP), 0x20000800)  returns 0x00 (0000ms, 0951ms total)
TD878 001:866 JLINK_WriteReg(R14, 0x20000001)  returns 0x00 (0000ms, 0951ms total)
TD878 001:866 JLINK_WriteReg(R15 (PC), 0x20000108)  returns 0x00 (0000ms, 0951ms total)
TD878 001:866 JLINK_WriteReg(XPSR, 0x01000000)  returns 0x00 (0000ms, 0951ms total)
TD878 001:866 JLINK_WriteReg(MSP, 0x20000800)  returns 0x00 (0000ms, 0951ms total)
TD878 001:866 JLINK_WriteReg(PSP, 0x20000800)  returns 0x00 (0000ms, 0951ms total)
TD878 001:866 JLINK_WriteReg(CFBP, 0x00000000)  returns 0x00 (0000ms, 0951ms total)
TD878 001:866 JLINK_SetBPEx(Addr = 0x20000000, Type = 0xFFFFFFF2)  returns 0x0000000D (0000ms, 0951ms total)
TD878 001:866 JLINK_Go() (0003ms, 0954ms total)
TD878 001:869 JLINK_IsHalted()  returns FALSE (0001ms, 0955ms total)
TD878 001:874 JLINK_IsHalted() -- CPU_ReadMem(2 bytes @ 0x20000000)  returns TRUE (0005ms, 0959ms total)
TD878 001:879 JLINK_ReadReg(R15 (PC))  returns 0x20000000 (0000ms, 0954ms total)
TD878 001:879 JLINK_ClrBPEx(BPHandle = 0x0000000D)  returns 0x00 (0000ms, 0954ms total)
TD878 001:879 JLINK_ReadReg(R0)  returns 0x00000000 (0000ms, 0954ms total)
TD878 001:883 JLINK_WriteMem(0x20000180, 0x0400 Bytes, ...) - Data: EA E7 FF F7 CD FB 06 46 FF F7 8E FB FF F7 C8 FB ... -- CPU_WriteMem(1024 bytes @ 0x20000180)  returns 0x400 (0013ms, 0967ms total)
TD878 001:896 JLINK_WriteReg(R0, 0x08001C00)  returns 0x00 (0000ms, 0967ms total)
TD878 001:896 JLINK_WriteReg(R1, 0x00000400)  returns 0x00 (0000ms, 0967ms total)
TD878 001:896 JLINK_WriteReg(R2, 0x20000180)  returns 0x00 (0000ms, 0967ms total)
TD878 001:896 JLINK_WriteReg(R3, 0x00000000)  returns 0x00 (0000ms, 0967ms total)
TD878 001:896 JLINK_WriteReg(R4, 0x00000000)  returns 0x00 (0000ms, 0967ms total)
TD878 001:896 JLINK_WriteReg(R5, 0x00000000)  returns 0x00 (0000ms, 0967ms total)
TD878 001:896 JLINK_WriteReg(R6, 0x00000000)  returns 0x00 (0000ms, 0967ms total)
TD878 001:896 JLINK_WriteReg(R7, 0x00000000)  returns 0x00 (0000ms, 0967ms total)
TD878 001:896 JLINK_WriteReg(R8, 0x00000000)  returns 0x00 (0000ms, 0967ms total)
TD878 001:896 JLINK_WriteReg(R9, 0x2000017C)  returns 0x00 (0000ms, 0967ms total)
TD878 001:896 JLINK_WriteReg(R10, 0x00000000)  returns 0x00 (0000ms, 0967ms total)
TD878 001:896 JLINK_WriteReg(R11, 0x00000000)  returns 0x00 (0000ms, 0967ms total)
TD878 001:896 JLINK_WriteReg(R12, 0x00000000)  returns 0x00 (0000ms, 0967ms total)
TD878 001:896 JLINK_WriteReg(R13 (SP), 0x20000800)  returns 0x00 (0000ms, 0967ms total)
